
**** 10/29/21 15:05:32 ******* PSpice Lite (March 2016) ******* ID# 10813 ****

 ** Profile: "SCHEMATIC1-lab4"  [ c:\users\harry\desktop\csun\fall 2021 csun\ece 442l\ece 442l lab 1 mydaq\ece 442l lab 4 case 2-pspi


 ****     CIRCUIT DESCRIPTION


******************************************************************************




** Creating circuit file "lab4.cir" 
** WARNING: THIS AUTOMATICALLY GENERATED FILE MAY BE OVERWRITTEN BY SUBSEQUENT SIMULATIONS

*Libraries: 
* Profile Libraries :
* Local Libraries :
.LIB "../../../ece 442l lab 4 case 2-pspicefiles/ece 442l lab 4 case 2.lib" 
* From [PSPICE NETLIST] section of C:\Users\Harry\AppData\Roaming\SPB_Data\cdssetup\OrCAD_PSpice\17.2.0\PSpice.ini file:
.lib "nomd.lib" 

*Analysis directives: 
.TRAN  0 .6ms 0 1us 
.OPTIONS ADVCONV
.PROBE64 V(alias(*)) I(alias(*)) W(alias(*)) D(alias(*)) NOISE(alias(*)) 
.INC "..\SCHEMATIC1.net" 



**** INCLUDING SCHEMATIC1.net ****
* source ECE 442L LAB 4 CASE 2
V_V2         N00326 0  
+PULSE 5 0 0 1us 1us 4us 10us
V_V3         N00333 0 5Vdc
R_R1         0 N00654  100MEG TC=0,0 
M_M1         N00354 N00326 N00333 N00333 Mbreakp           
M_M2         N00654 N00354 N00462 N00333 Mbreakp           
M_M3         N00354 N00326 0 0 Mbreakn           
M_M4         N00654 N00326 N00462 0 Mbreakn           
C_C1         0 N00654  200pF  TC=0,0 
V_V4         N00462 0  
+PULSE 0 200mV 0 .1ms .1ms 0 .2ms

**** RESUMING lab4.cir ****
.END

**** 10/29/21 15:05:32 ******* PSpice Lite (March 2016) ******* ID# 10813 ****

 ** Profile: "SCHEMATIC1-lab4"  [ c:\users\harry\desktop\csun\fall 2021 csun\ece 442l\ece 442l lab 1 mydaq\ece 442l lab 4 case 2-pspi


 ****     MOSFET MODEL PARAMETERS


******************************************************************************




               Mbreakp         Mbreakn         
               PMOS            NMOS            
       LEVEL    1               1            
           L  100.000000E-06  100.000000E-06 
           W  100.000000E-06  100.000000E-06 
         VTO   -1               2            
          KP   55.000000E-06  111.000000E-06 
       GAMMA    0               0            
         PHI     .6              .6          
      LAMBDA    0               0            
          IS   10.000000E-15   10.000000E-15 
          JS    0               0            
          PB     .8              .8          
        PBSW     .8              .8          
          CJ    0               0            
        CJSW    0               0            
        CGSO    0               0            
        CGDO    0               0            
        CGBO    0               0            
         TOX    1.200000E-06    1.200000E-06 
          XJ    0               0            
       UCRIT   10.000000E+03   10.000000E+03 
      DIOMOD    1               1            
         VFB    0               0            
        LETA    0               0            
        WETA    0               0            
          U0    0               0            
        TEMP    0               0            
         VDD    5               5            
       XPART    0               0            


**** 10/29/21 15:05:32 ******* PSpice Lite (March 2016) ******* ID# 10813 ****

 ** Profile: "SCHEMATIC1-lab4"  [ c:\users\harry\desktop\csun\fall 2021 csun\ece 442l\ece 442l lab 1 mydaq\ece 442l lab 4 case 2-pspi


 ****     INITIAL TRANSIENT SOLUTION       TEMPERATURE =   27.000 DEG C


******************************************************************************



 NODE   VOLTAGE     NODE   VOLTAGE     NODE   VOLTAGE     NODE   VOLTAGE


(N00326)    5.0000 (N00333)    5.0000 (N00354) 15.05E-09 (N00462)    0.0000     

(N00654) 15.04E-09 




    VOLTAGE SOURCE CURRENTS
    NAME         CURRENT

    V_V2         0.000E+00
    V_V3        -1.503E-11
    V_V4         1.002E-11

    TOTAL POWER DISSIPATION   7.52E-11  WATTS


**** Interrupt ****

          JOB ABORTED

**** 10/29/21 15:05:32 ******* PSpice Lite (March 2016) ******* ID# 10813 ****

 ** Profile: "SCHEMATIC1-lab4"  [ c:\users\harry\desktop\csun\fall 2021 csun\ece 442l\ece 442l lab 1 mydaq\ece 442l lab 4 case 2-pspi


 ****     JOB STATISTICS SUMMARY


******************************************************************************



  License check-out time            =       48.67
  Total job time (using Solver 1)   =        1.24
